T0FC0 000:103.635   SEGGER J-Link V6.60 Log File
T0FC0 000:103.766   DLL Compiled: Dec 16 2019 15:10:44
T0FC0 000:103.780   Logging started @ 2026-09-24 09:47
T0FC0 000:103.799 JLINK_SetWarnOutHandler(...)
T0FC0 000:103.820 - 0.027ms
T0FC0 000:103.838 JLINK_OpenEx(...)
T0FC0 000:121.494   Firmware: J-Link V9 compiled May  7 2021 16:26:12
T0FC0 000:132.627   Hardware: V9.60
T0FC0 000:132.665   S/N: 63611453
T0FC0 000:132.688   OEM: SEGGER
T0FC0 000:132.715   Feature(s): RDI, GDB, FlashDL, FlashBP, JFlash
T0FC0 000:133.576   TELNET listener socket opened on port 19021
T0FC0 000:133.685   WEBSRV Starting webserver
T0FC0 000:133.868   WEBSRV Webserver running on local port 19080
T0FC0 000:133.896 - 30.066ms returns "O.K."
T0FC0 000:133.927 JLINK_SetErrorOutHandler(...)
T0FC0 000:133.944 - 0.024ms
T0FC0 000:133.972 JLINK_ExecCommand("ProjectFile = "D:\My Project\HOYA\UVLED_CS32F103RB_Pro\JLinkSettings.ini"", ...). 
T0FC0 000:135.892   Ref file found at: D:\Keil_v5.23\ARM\Segger\JLinkDevices.ref
T0FC0 000:136.141   XML referenced by ref file: C:\Program Files (x86)\SEGGER\JLink\JLinkDevices.xml
T0FC0 000:139.104   C:\Program Files (x86)\SEGGER\JLink\JLinkDevices.xml evaluated successfully.
T0FC0 000:358.689   Device "STM32F103RB" selected.
T0FC0 000:359.212 - 225.266ms returns 0x00
T0FC0 000:363.450 JLINK_ExecCommand("Device = CS32F103RB", ...). 
T0FC0 000:368.188   Device "STM32F103RB" selected.
T0FC0 000:368.831 - 5.364ms returns 0x00
T0FC0 000:368.871 JLINK_ExecCommand("DisableConnectionTimeout", ...). 
T0FC0 000:368.900 - 0.013ms returns 0x01
T0FC0 000:368.922 JLINK_GetHardwareVersion()
T0FC0 000:368.941 - 0.027ms returns 0x17700
T0FC0 000:368.970 JLINK_GetDLLVersion()  returns 66000
T0FC0 000:368.998 JLINK_GetFirmwareString(...)
T0FC0 000:369.016 - 0.028ms
T0FC0 000:382.432 JLINK_GetDLLVersion()  returns 66000
T0FC0 000:382.470 JLINK_GetCompileDateTime()
T0FC0 000:382.487 - 0.024ms
T0FC0 000:386.388 JLINK_GetFirmwareString(...)
T0FC0 000:386.418 - 0.039ms
T0FC0 000:390.252 JLINK_GetHardwareVersion()
T0FC0 000:390.280 - 0.036ms returns 0x17700
T0FC0 000:407.252 JLINK_TIF_Select(JLINKARM_TIF_SWD)
T0FC0 000:408.036 - 0.806ms returns 0x00
T0FC0 000:408.089 JLINK_SetSpeed(5000)
T0FC0 000:408.228 - 0.158ms
T0FC0 000:408.266 JLINK_GetId()
T0FC0 000:415.522   Found SW-DP with ID 0x1BA01477
T0FC0 000:430.780   Found SW-DP with ID 0x1BA01477
T0FC0 000:436.028   Scanning AP map to find all available APs
T0FC0 000:441.083   AP[1]: Stopped AP scan as end of AP map has been reached
T0FC0 000:444.562   AP[0]: AHB-AP (IDR: 0x14770011)
T0FC0 000:448.649   Iterating through AP map to find AHB-AP to use
T0FC0 000:454.818   AP[0]: Core found
T0FC0 000:458.246   AP[0]: AHB-AP ROM base: 0xE00FF000
T0FC0 000:463.854   CPUID register: 0x411FC231. Implementer code: 0x41 (ARM)
T0FC0 000:467.544   Found Cortex-M3 r1p1, Little endian.
T0FC0 000:569.167    -- Max. mem block: 0x00010E08
T0FC0 000:569.223    -- CPU_ReadMem(4 bytes @ 0xE000EDF0)
T0FC0 000:569.675    -- CPU_WriteMem(4 bytes @ 0xE000EDF0)
T0FC0 000:570.009    -- CPU_ReadMem(4 bytes @ 0xE0002000)
T0FC0 000:575.446   FPUnit: 6 code (BP) slots and 2 literal slots
T0FC0 000:575.491    -- CPU_ReadMem(4 bytes @ 0xE000EDFC)
T0FC0 000:575.821    -- CPU_WriteMem(4 bytes @ 0xE000EDFC)
T0FC0 000:576.100    -- CPU_ReadMem(4 bytes @ 0xE0001000)
T0FC0 000:576.370    -- CPU_WriteMem(4 bytes @ 0xE0001000)
T0FC0 000:576.626    -- CPU_ReadMem(4 bytes @ 0xE000ED88)
T0FC0 000:576.918    -- CPU_WriteMem(4 bytes @ 0xE000ED88)
T0FC0 000:577.176    -- CPU_ReadMem(4 bytes @ 0xE000ED88)
T0FC0 000:577.531    -- CPU_WriteMem(4 bytes @ 0xE000ED88)
T0FC0 000:581.979   CoreSight components:
T0FC0 000:585.271   ROMTbl[0] @ E00FF000
T0FC0 000:585.316    -- CPU_ReadMem(16 bytes @ 0xE00FF000)
T0FC0 000:585.645    -- CPU_ReadMem(16 bytes @ 0xE000EFF0)
T0FC0 000:585.919    -- CPU_ReadMem(16 bytes @ 0xE000EFE0)
T0FC0 000:589.551   ROMTbl[0][0]: E000E000, CID: B105E00D, PID: 001BB000 SCS
T0FC0 000:589.586    -- CPU_ReadMem(16 bytes @ 0xE0001FF0)
T0FC0 000:589.890    -- CPU_ReadMem(16 bytes @ 0xE0001FE0)
T0FC0 000:593.654   ROMTbl[0][1]: E0001000, CID: B105E00D, PID: 001BB002 DWT
T0FC0 000:593.688    -- CPU_ReadMem(16 bytes @ 0xE0002FF0)
T0FC0 000:593.968    -- CPU_ReadMem(16 bytes @ 0xE0002FE0)
T0FC0 000:598.230   ROMTbl[0][2]: E0002000, CID: B105E00D, PID: 000BB003 FPB
T0FC0 000:598.278    -- CPU_ReadMem(16 bytes @ 0xE0000FF0)
T0FC0 000:598.628    -- CPU_ReadMem(16 bytes @ 0xE0000FE0)
T0FC0 000:602.183   ROMTbl[0][3]: E0000000, CID: B105E00D, PID: 001BB001 ITM
T0FC0 000:602.216    -- CPU_ReadMem(16 bytes @ 0xE00FF010)
T0FC0 000:602.505    -- CPU_ReadMem(16 bytes @ 0xE0040FF0)
T0FC0 000:602.764    -- CPU_ReadMem(16 bytes @ 0xE0040FE0)
T0FC0 000:606.449   ROMTbl[0][4]: E0040000, CID: B105900D, PID: 001BB923 TPIU-Lite
T0FC0 000:606.789 - 198.537ms   returns 0x1BA01477
T0FC0 000:606.826 JLINK_GetDLLVersion()  returns 66000
T0FC0 000:606.844 JLINK_CORE_GetFound()
T0FC0 000:606.859 - 0.021ms returns 0x30000FF
T0FC0 000:606.878 JLINK_GetDebugInfo(0x100 = JLINKARM_ROM_TABLE_ADDR_INDEX)
T0FC0 000:606.894   Value=0xE00FF000
T0FC0 000:606.916 - 0.045ms returns 0x00
T0FC0 000:610.606 JLINK_GetDebugInfo(0x100 = JLINKARM_ROM_TABLE_ADDR_INDEX)
T0FC0 000:610.635   Value=0xE00FF000
T0FC0 000:610.657 - 0.058ms returns 0x00
T0FC0 000:610.674 JLINK_GetDebugInfo(0x101 = JLINKARM_DEBUG_INFO_ETM_ADDR_INDEX)
T0FC0 000:610.690   Value=0x00000000
T0FC0 000:610.712 - 0.045ms returns 0x00
T0FC0 000:610.736 JLINK_ReadMem (0xE0041FF0, 0x0010 Bytes, ...)
T0FC0 000:610.768    -- CPU_ReadMem(16 bytes @ 0xE0041FF0)
T0FC0 000:611.138   Data:  00 00 00 00 00 00 00 00 00 00 00 00 00 00 00 00
T0FC0 000:611.170 - 0.440ms returns 0x00
T0FC0 000:611.189 JLINK_GetDebugInfo(0x102 = JLINKARM_DEBUG_INFO_MTB_ADDR_INDEX)
T0FC0 000:611.204   Value=0x00000000
T0FC0 000:611.226 - 0.045ms returns 0x00
T0FC0 000:611.243 JLINK_GetDebugInfo(0x103 = JLINKARM_DEBUG_INFO_TPIU_ADDR_INDEX)
T0FC0 000:611.259   Value=0xE0040000
T0FC0 000:611.280 - 0.044ms returns 0x00
T0FC0 000:611.296 JLINK_GetDebugInfo(0x104 = JLINKARM_DEBUG_INFO_ITM_ADDR_INDEX)
T0FC0 000:611.312   Value=0xE0000000
T0FC0 000:611.333 - 0.060ms returns 0x00
T0FC0 000:611.367 JLINK_GetDebugInfo(0x105 = JLINKARM_DEBUG_INFO_DWT_ADDR_INDEX)
T0FC0 000:611.383   Value=0xE0001000
T0FC0 000:611.405 - 0.046ms returns 0x00
T0FC0 000:611.425 JLINK_GetDebugInfo(0x106 = JLINKARM_DEBUG_INFO_FPB_ADDR_INDEX)
T0FC0 000:611.441   Value=0xE0002000
T0FC0 000:611.463 - 0.044ms returns 0x00
T0FC0 000:611.482 JLINK_GetDebugInfo(0x107 = JLINKARM_DEBUG_INFO_NVIC_ADDR_INDEX)
T0FC0 000:611.503   Value=0xE000E000
T0FC0 000:611.534 - 0.061ms returns 0x00
T0FC0 000:611.555 JLINK_GetDebugInfo(0x10C = JLINKARM_DEBUG_INFO_DBG_ADDR_INDEX)
T0FC0 000:611.575   Value=0xE000EDF0
T0FC0 000:611.599 - 0.054ms returns 0x00
T0FC0 000:611.622   JLINK_ReadMemU32(0xE000ED00, 0x0001 Items, ...)
T0FC0 000:611.651    -- CPU_ReadMem(4 bytes @ 0xE000ED00)
T0FC0 000:611.898   Data:  31 C2 1F 41
T0FC0 000:611.936    - CPUID
T0FC0 000:611.959 - 0.345ms returns 1
T0FC0 000:611.983 JLINK_SetResetType(JLINKARM_CM3_RESET_TYPE_NORMAL)
T0FC0 000:611.999 - 0.024ms returns JLINKARM_CM3_RESET_TYPE_NORMAL
T0FC0 000:612.017 JLINK_Reset()
T0FC0 000:612.051   CPU is running
T0FC0 000:612.086    -- CPU_WriteMem(4 bytes @ 0xE000EDF0)
T0FC0 000:612.515   CPU is running
T0FC0 000:612.548    -- CPU_WriteMem(4 bytes @ 0xE000EDFC)
T0FC0 000:616.626   Reset: Halt core after reset via DEMCR.VC_CORERESET.
T0FC0 000:620.146   Reset: Reset device via AIRCR.SYSRESETREQ.
T0FC0 000:620.193   CPU is running
T0FC0 000:620.218    -- CPU_WriteMem(4 bytes @ 0xE000ED0C)
T0FC0 000:673.298    -- CPU_ReadMem(4 bytes @ 0xE000EDF0)
T0FC0 000:673.596    -- CPU_ReadMem(4 bytes @ 0xE000EDF0)
T0FC0 000:673.926   CPU is running
T0FC0 000:673.963    -- CPU_WriteMem(4 bytes @ 0xE000EDF0)
T0FC0 000:674.264   CPU is running
T0FC0 000:674.298    -- CPU_WriteMem(4 bytes @ 0xE000EDFC)
T0FC0 000:679.832    -- CPU_ReadMem(4 bytes @ 0xE000EDF0)
T0FC0 000:681.999    -- CPU_WriteMem(4 bytes @ 0xE0002000)
T0FC0 000:682.318    -- CPU_ReadMem(4 bytes @ 0xE000EDFC)
T0FC0 000:682.596    -- CPU_ReadMem(4 bytes @ 0xE0001000)
T0FC0 000:682.915 - 70.911ms
T0FC0 000:682.949 JLINK_Halt()
T0FC0 000:682.966 - 0.025ms returns 0x00
T0FC0 000:682.985 JLINK_IsHalted()
T0FC0 000:683.002 - 0.024ms returns TRUE
T0FC0 000:683.022   JLINK_ReadMemU32(0xE000EDF0, 0x0001 Items, ...)
T0FC0 000:683.054    -- CPU_ReadMem(4 bytes @ 0xE000EDF0)
T0FC0 000:683.342   Data:  03 00 03 00
T0FC0 000:683.377    - DHCSR
T0FC0 000:683.401 - 0.387ms returns 1
T0FC0 000:683.432   JLINK_WriteU32(0xE000EDF0, 0xA05F0003)
T0FC0 000:683.457    - DHCSR
T0FC0 000:683.492    -- CPU_WriteMem(4 bytes @ 0xE000EDF0)
T0FC0 000:683.786 - 0.369ms returns 0
T0FC0 000:683.813   JLINK_WriteU32(0xE000EDFC, 0x01000000)
T0FC0 000:683.838    - DEMCR
T0FC0 000:683.867    -- CPU_WriteMem(4 bytes @ 0xE000EDFC)
T0FC0 000:684.134 - 0.333ms returns 0
T0FC0 000:700.825 JLINK_GetHWStatus(...)
T0FC0 000:701.016 - 0.210ms returns 0x00
T0FC0 000:712.941 JLINK_GetNumBPUnits(Type = 0xFFFFFF00)
T0FC0 000:712.975 - 0.041ms returns 0x06
T0FC0 000:712.991 JLINK_GetNumBPUnits(Type = 0xF0)
T0FC0 000:713.004 - 0.019ms returns 0x2000
T0FC0 000:713.018 JLINK_GetNumWPUnits()
T0FC0 000:713.031 - 0.019ms returns 0x04
T0FC0 000:723.131 JLINK_GetSpeed()
T0FC0 000:723.160 - 0.036ms returns 0xFA0
T0FC0 000:730.448   JLINK_ReadMemU32(0xE000E004, 0x0001 Items, ...)
T0FC0 000:730.500    -- CPU_ReadMem(4 bytes @ 0xE000E004)
T0FC0 000:730.827   Data:  01 00 00 00
T0FC0 000:730.852 - 0.411ms returns 1
T0FC0 000:730.869   JLINK_ReadMemU32(0xE000E004, 0x0001 Items, ...)
T0FC0 000:730.893    -- CPU_ReadMem(4 bytes @ 0xE000E004)
T0FC0 000:731.199   Data:  01 00 00 00
T0FC0 000:731.223 - 0.360ms returns 1
T0FC0 000:731.239 JLINK_WriteMem(0xE0001000, 0x001C Bytes, ...)
T0FC0 000:731.252   Data:  01 00 00 00 00 00 00 00 00 00 00 00 00 00 00 00 ...
T0FC0 000:731.553    -- CPU_WriteMem(28 bytes @ 0xE0001000)
T0FC0 000:731.962 - 0.734ms returns 0x1C
T0FC0 000:731.985 JLINK_ReadMem (0xE0001000, 0x001C Bytes, ...)
T0FC0 000:732.003    -- CPU_ReadMem(28 bytes @ 0xE0001000)
T0FC0 000:732.412   Data:  01 00 00 40 00 00 00 00 00 00 00 00 00 00 00 00 ...
T0FC0 000:732.436 - 0.457ms returns 0x00
T0FC0 000:732.454 JLINK_Halt()
T0FC0 000:732.466 - 0.018ms returns 0x00
T0FC0 000:732.479 JLINK_IsHalted()
T0FC0 000:732.492 - 0.018ms returns TRUE
T0FC0 000:736.421 JLINK_WriteMem(0x20000000, 0x01B8 Bytes, ...)
T0FC0 000:736.442   Data:  00 BE 0A E0 0D 78 2D 06 68 40 08 24 40 00 00 D3 ...
T0FC0 000:736.701    -- CPU_WriteMem(440 bytes @ 0x20000000)
T0FC0 000:738.505 - 2.094ms returns 0x1B8
T0FC0 000:738.543 JLINK_WriteReg(R0, 0x08000000)
T0FC0 000:738.560 - 0.023ms returns 0x00
T0FC0 000:738.574 JLINK_WriteReg(R1, 0x00B71B00)
T0FC0 000:738.587 - 0.019ms returns 0x00
T0FC0 000:738.601 JLINK_WriteReg(R2, 0x00000001)
T0FC0 000:738.614 - 0.019ms returns 0x00
T0FC0 000:738.628 JLINK_WriteReg(R3, 0x00000000)
T0FC0 000:738.641 - 0.019ms returns 0x00
T0FC0 000:738.656 JLINK_WriteReg(R4, 0x00000000)
T0FC0 000:738.669 - 0.019ms returns 0x00
T0FC0 000:738.683 JLINK_WriteReg(R5, 0x00000000)
T0FC0 000:738.696 - 0.019ms returns 0x00
T0FC0 000:738.710 JLINK_WriteReg(R6, 0x00000000)
T0FC0 000:738.723 - 0.019ms returns 0x00
T0FC0 000:738.737 JLINK_WriteReg(R7, 0x00000000)
T0FC0 000:738.750 - 0.019ms returns 0x00
T0FC0 000:738.764 JLINK_WriteReg(R8, 0x00000000)
T0FC0 000:738.782 - 0.024ms returns 0x00
T0FC0 000:738.796 JLINK_WriteReg(R9, 0x200001B4)
T0FC0 000:738.809 - 0.019ms returns 0x00
T0FC0 000:738.824 JLINK_WriteReg(R10, 0x00000000)
T0FC0 000:738.837 - 0.019ms returns 0x00
T0FC0 000:738.851 JLINK_WriteReg(R11, 0x00000000)
T0FC0 000:738.864 - 0.019ms returns 0x00
T0FC0 000:738.878 JLINK_WriteReg(R12, 0x00000000)
T0FC0 000:738.891 - 0.019ms returns 0x00
T0FC0 000:738.905 JLINK_WriteReg(R13 (SP), 0x20001000)
T0FC0 000:738.919 - 0.020ms returns 0x00
T0FC0 000:738.933 JLINK_WriteReg(R14, 0x20000001)
T0FC0 000:738.947 - 0.019ms returns 0x00
T0FC0 000:738.961 JLINK_WriteReg(R15 (PC), 0x20000020)
T0FC0 000:738.979 - 0.025ms returns 0x00
T0FC0 000:738.994 JLINK_WriteReg(XPSR, 0x01000000)
T0FC0 000:739.007 - 0.020ms returns 0x00
T0FC0 000:739.021 JLINK_WriteReg(MSP, 0x20001000)
T0FC0 000:739.034 - 0.019ms returns 0x00
T0FC0 000:739.048 JLINK_WriteReg(PSP, 0x20001000)
T0FC0 000:739.061 - 0.019ms returns 0x00
T0FC0 000:739.075 JLINK_WriteReg(CFBP, 0x00000000)
T0FC0 000:739.089 - 0.019ms returns 0x00
T0FC0 000:739.104   JLINK_SetBPEx(Addr = 0x20000000, Type = 0xFFFFFFF2)
T0FC0 000:739.127    -- CPU_ReadMem(2 bytes @ 0x20000000)
T0FC0 000:739.351 - 0.257ms returns 0x00000001
T0FC0 000:739.372 JLINK_Go()
T0FC0 000:739.387    -- CPU_WriteMem(2 bytes @ 0x20000000)
T0FC0 000:739.615    -- CPU_ReadMem(4 bytes @ 0xE0001000)
T0FC0 000:739.881    -- CPU_WriteMem(4 bytes @ 0xE0002008)
T0FC0 000:739.903    -- CPU_WriteMem(4 bytes @ 0xE000200C)
T0FC0 000:739.922    -- CPU_WriteMem(4 bytes @ 0xE0002010)
T0FC0 000:739.941    -- CPU_WriteMem(4 bytes @ 0xE0002014)
T0FC0 000:739.960    -- CPU_WriteMem(4 bytes @ 0xE0002018)
T0FC0 000:739.980    -- CPU_WriteMem(4 bytes @ 0xE000201C)
T0FC0 000:740.893    -- CPU_WriteMem(4 bytes @ 0xE0001004)
T0FC0 000:742.910 - 3.560ms
T0FC0 000:742.945 JLINK_IsHalted()
T0FC0 000:744.704    -- CPU_ReadMem(2 bytes @ 0x20000000)
T0FC0 000:744.976 - 2.051ms returns TRUE
T0FC0 000:745.013 JLINK_ReadReg(R15 (PC))
T0FC0 000:745.032 - 0.025ms returns 0x20000000
T0FC0 000:745.047 JLINK_ClrBPEx(BPHandle = 0x00000001)
T0FC0 000:745.061 - 0.021ms returns 0x00
T0FC0 000:745.077 JLINK_ReadReg(R0)
T0FC0 000:745.091 - 0.020ms returns 0x00000000
T0FC0 000:745.452 JLINK_WriteReg(R0, 0x08000000)
T0FC0 000:745.472 - 0.027ms returns 0x00
T0FC0 000:745.488 JLINK_WriteReg(R1, 0x00000400)
T0FC0 000:745.502 - 0.020ms returns 0x00
T0FC0 000:745.517 JLINK_WriteReg(R2, 0x000000FF)
T0FC0 000:745.531 - 0.020ms returns 0x00
T0FC0 000:745.546 JLINK_WriteReg(R3, 0x00000000)
T0FC0 000:745.560 - 0.021ms returns 0x00
T0FC0 000:745.575 JLINK_WriteReg(R4, 0x00000000)
T0FC0 000:745.589 - 0.020ms returns 0x00
T0FC0 000:745.604 JLINK_WriteReg(R5, 0x00000000)
T0FC0 000:745.618 - 0.021ms returns 0x00
T0FC0 000:745.634 JLINK_WriteReg(R6, 0x00000000)
T0FC0 000:745.648 - 0.021ms returns 0x00
T0FC0 000:745.663 JLINK_WriteReg(R7, 0x00000000)
T0FC0 000:745.677 - 0.021ms returns 0x00
T0FC0 000:745.692 JLINK_WriteReg(R8, 0x00000000)
T0FC0 000:745.706 - 0.021ms returns 0x00
T0FC0 000:745.721 JLINK_WriteReg(R9, 0x200001B4)
T0FC0 000:745.737 - 0.023ms returns 0x00
T0FC0 000:745.753 JLINK_WriteReg(R10, 0x00000000)
T0FC0 000:745.768 - 0.021ms returns 0x00
T0FC0 000:745.784 JLINK_WriteReg(R11, 0x00000000)
T0FC0 000:745.798 - 0.021ms returns 0x00
T0FC0 000:745.815 JLINK_WriteReg(R12, 0x00000000)
T0FC0 000:745.831 - 0.025ms returns 0x00
T0FC0 000:745.848 JLINK_WriteReg(R13 (SP), 0x20001000)
T0FC0 000:745.863 - 0.021ms returns 0x00
T0FC0 000:745.878 JLINK_WriteReg(R14, 0x20000001)
T0FC0 000:745.892 - 0.021ms returns 0x00
T0FC0 000:745.907 JLINK_WriteReg(R15 (PC), 0x2000012E)
T0FC0 000:745.922 - 0.021ms returns 0x00
T0FC0 000:745.937 JLINK_WriteReg(XPSR, 0x01000000)
T0FC0 000:745.962 - 0.033ms returns 0x00
T0FC0 000:745.984 JLINK_WriteReg(MSP, 0x20001000)
T0FC0 000:745.998 - 0.020ms returns 0x00
T0FC0 000:746.013 JLINK_WriteReg(PSP, 0x20001000)
T0FC0 000:746.027 - 0.020ms returns 0x00
T0FC0 000:746.042 JLINK_WriteReg(CFBP, 0x00000000)
T0FC0 000:746.057 - 0.021ms returns 0x00
T0FC0 000:746.073   JLINK_SetBPEx(Addr = 0x20000000, Type = 0xFFFFFFF2)
T0FC0 000:746.096 - 0.031ms returns 0x00000002
T0FC0 000:746.112 JLINK_Go()
T0FC0 000:746.134    -- CPU_ReadMem(4 bytes @ 0xE0001000)
T0FC0 000:748.096 - 1.994ms
T0FC0 000:748.117 JLINK_IsHalted()
T0FC0 000:749.895    -- CPU_ReadMem(2 bytes @ 0x20000000)
T0FC0 000:750.126 - 2.019ms returns TRUE
T0FC0 000:750.148 JLINK_ReadReg(R15 (PC))
T0FC0 000:750.163 - 0.023ms returns 0x20000000
T0FC0 000:750.179 JLINK_ClrBPEx(BPHandle = 0x00000002)
T0FC0 000:750.193 - 0.021ms returns 0x00
T0FC0 000:750.209 JLINK_ReadReg(R0)
T0FC0 000:750.223 - 0.094ms returns 0x00000001
T0FC0 000:750.330 JLINK_WriteReg(R0, 0x08000000)
T0FC0 000:750.347 - 0.023ms returns 0x00
T0FC0 000:750.363 JLINK_WriteReg(R1, 0x00000400)
T0FC0 000:750.378 - 0.022ms returns 0x00
T0FC0 000:750.394 JLINK_WriteReg(R2, 0x000000FF)
T0FC0 000:750.408 - 0.021ms returns 0x00
T0FC0 000:750.424 JLINK_WriteReg(R3, 0x00000000)
T0FC0 000:750.438 - 0.021ms returns 0x00
T0FC0 000:750.454 JLINK_WriteReg(R4, 0x00000000)
T0FC0 000:750.468 - 0.021ms returns 0x00
T0FC0 000:750.484 JLINK_WriteReg(R5, 0x00000000)
T0FC0 000:750.499 - 0.022ms returns 0x00
T0FC0 000:750.514 JLINK_WriteReg(R6, 0x00000000)
T0FC0 000:750.529 - 0.021ms returns 0x00
T0FC0 000:750.544 JLINK_WriteReg(R7, 0x00000000)
T0FC0 000:750.559 - 0.021ms returns 0x00
T0FC0 000:750.574 JLINK_WriteReg(R8, 0x00000000)
T0FC0 000:750.589 - 0.021ms returns 0x00
T0FC0 000:750.605 JLINK_WriteReg(R9, 0x200001B4)
T0FC0 000:750.619 - 0.021ms returns 0x00
T0FC0 000:750.635 JLINK_WriteReg(R10, 0x00000000)
T0FC0 000:750.650 - 0.022ms returns 0x00
T0FC0 000:750.665 JLINK_WriteReg(R11, 0x00000000)
T0FC0 000:750.680 - 0.022ms returns 0x00
T0FC0 000:750.696 JLINK_WriteReg(R12, 0x00000000)
T0FC0 000:750.710 - 0.021ms returns 0x00
T0FC0 000:750.725 JLINK_WriteReg(R13 (SP), 0x20001000)
T0FC0 000:750.740 - 0.022ms returns 0x00
T0FC0 000:750.756 JLINK_WriteReg(R14, 0x20000001)
T0FC0 000:750.771 - 0.021ms returns 0x00
T0FC0 000:750.786 JLINK_WriteReg(R15 (PC), 0x200000CC)
T0FC0 000:750.801 - 0.022ms returns 0x00
T0FC0 000:750.817 JLINK_WriteReg(XPSR, 0x01000000)
T0FC0 000:750.831 - 0.021ms returns 0x00
T0FC0 000:750.847 JLINK_WriteReg(MSP, 0x20001000)
T0FC0 000:750.862 - 0.022ms returns 0x00
T0FC0 000:750.877 JLINK_WriteReg(PSP, 0x20001000)
T0FC0 000:750.893 - 0.022ms returns 0x00
T0FC0 000:750.908 JLINK_WriteReg(CFBP, 0x00000000)
T0FC0 000:750.922 - 0.023ms returns 0x00
T0FC0 000:750.942   JLINK_SetBPEx(Addr = 0x20000000, Type = 0xFFFFFFF2)
T0FC0 000:750.969 - 0.037ms returns 0x00000003
T0FC0 000:750.995 JLINK_Go()
T0FC0 000:751.015    -- CPU_ReadMem(4 bytes @ 0xE0001000)
T0FC0 000:752.928 - 1.946ms
T0FC0 000:752.952 JLINK_IsHalted()
T0FC0 000:753.170 - 0.228ms returns FALSE
T0FC0 000:797.849 JLINK_IsHalted()
T0FC0 000:799.735    -- CPU_ReadMem(2 bytes @ 0x20000000)
T0FC0 000:800.065 - 2.230ms returns TRUE
T0FC0 000:800.092 JLINK_ReadReg(R15 (PC))
T0FC0 000:800.110 - 0.026ms returns 0x20000000
T0FC0 000:800.127 JLINK_ClrBPEx(BPHandle = 0x00000003)
T0FC0 000:800.143 - 0.023ms returns 0x00
T0FC0 000:800.159 JLINK_ReadReg(R0)
T0FC0 000:800.174 - 0.023ms returns 0x00000000
T0FC0 000:800.777 JLINK_WriteReg(R0, 0x08000400)
T0FC0 000:800.802 - 0.034ms returns 0x00
T0FC0 000:800.819 JLINK_WriteReg(R1, 0x00000400)
T0FC0 000:800.834 - 0.022ms returns 0x00
T0FC0 000:800.850 JLINK_WriteReg(R2, 0x000000FF)
T0FC0 000:800.865 - 0.022ms returns 0x00
T0FC0 000:800.881 JLINK_WriteReg(R3, 0x00000000)
T0FC0 000:800.896 - 0.022ms returns 0x00
T0FC0 000:800.912 JLINK_WriteReg(R4, 0x00000000)
T0FC0 000:800.927 - 0.022ms returns 0x00
T0FC0 000:800.942 JLINK_WriteReg(R5, 0x00000000)
T0FC0 000:800.957 - 0.021ms returns 0x00
T0FC0 000:800.973 JLINK_WriteReg(R6, 0x00000000)
T0FC0 000:800.988 - 0.022ms returns 0x00
T0FC0 000:801.004 JLINK_WriteReg(R7, 0x00000000)
T0FC0 000:801.019 - 0.022ms returns 0x00
T0FC0 000:801.036 JLINK_WriteReg(R8, 0x00000000)
T0FC0 000:801.050 - 0.022ms returns 0x00
T0FC0 000:801.067 JLINK_WriteReg(R9, 0x200001B4)
T0FC0 000:801.081 - 0.021ms returns 0x00
T0FC0 000:801.097 JLINK_WriteReg(R10, 0x00000000)
T0FC0 000:801.112 - 0.022ms returns 0x00
T0FC0 000:801.128 JLINK_WriteReg(R11, 0x00000000)
T0FC0 000:801.143 - 0.022ms returns 0x00
T0FC0 000:801.159 JLINK_WriteReg(R12, 0x00000000)
T0FC0 000:801.174 - 0.022ms returns 0x00
T0FC0 000:801.190 JLINK_WriteReg(R13 (SP), 0x20001000)
T0FC0 000:801.206 - 0.024ms returns 0x00
T0FC0 000:801.223 JLINK_WriteReg(R14, 0x20000001)
T0FC0 000:801.239 - 0.022ms returns 0x00
T0FC0 000:801.254 JLINK_WriteReg(R15 (PC), 0x2000012E)
T0FC0 000:801.270 - 0.026ms returns 0x00
T0FC0 000:801.293 JLINK_WriteReg(XPSR, 0x01000000)
T0FC0 000:801.308 - 0.022ms returns 0x00
T0FC0 000:801.324 JLINK_WriteReg(MSP, 0x20001000)
T0FC0 000:801.339 - 0.021ms returns 0x00
T0FC0 000:801.354 JLINK_WriteReg(PSP, 0x20001000)
T0FC0 000:801.370 - 0.022ms returns 0x00
T0FC0 000:801.386 JLINK_WriteReg(CFBP, 0x00000000)
T0FC0 000:801.401 - 0.022ms returns 0x00
T0FC0 000:801.418   JLINK_SetBPEx(Addr = 0x20000000, Type = 0xFFFFFFF2)
T0FC0 000:801.441 - 0.031ms returns 0x00000004
T0FC0 000:801.457 JLINK_Go()
T0FC0 000:801.479    -- CPU_ReadMem(4 bytes @ 0xE0001000)
T0FC0 000:803.662 - 2.219ms
T0FC0 000:803.688 JLINK_IsHalted()
T0FC0 000:805.605    -- CPU_ReadMem(2 bytes @ 0x20000000)
T0FC0 000:805.986 - 2.314ms returns TRUE
T0FC0 000:806.015 JLINK_ReadReg(R15 (PC))
T0FC0 000:806.032 - 0.026ms returns 0x20000000
T0FC0 000:806.050 JLINK_ClrBPEx(BPHandle = 0x00000004)
T0FC0 000:806.066 - 0.023ms returns 0x00
T0FC0 000:806.083 JLINK_ReadReg(R0)
T0FC0 000:806.099 - 0.023ms returns 0x00000001
T0FC0 000:806.117 JLINK_WriteReg(R0, 0x08000400)
T0FC0 000:806.133 - 0.023ms returns 0x00
T0FC0 000:806.150 JLINK_WriteReg(R1, 0x00000400)
T0FC0 000:806.165 - 0.023ms returns 0x00
T0FC0 000:806.183 JLINK_WriteReg(R2, 0x000000FF)
T0FC0 000:806.199 - 0.023ms returns 0x00
T0FC0 000:806.216 JLINK_WriteReg(R3, 0x00000000)
T0FC0 000:806.232 - 0.023ms returns 0x00
T0FC0 000:806.248 JLINK_WriteReg(R4, 0x00000000)
T0FC0 000:806.264 - 0.022ms returns 0x00
T0FC0 000:806.280 JLINK_WriteReg(R5, 0x00000000)
T0FC0 000:806.295 - 0.023ms returns 0x00
T0FC0 000:806.312 JLINK_WriteReg(R6, 0x00000000)
T0FC0 000:806.328 - 0.024ms returns 0x00
T0FC0 000:806.346 JLINK_WriteReg(R7, 0x00000000)
T0FC0 000:806.361 - 0.044ms returns 0x00
T0FC0 000:806.400 JLINK_WriteReg(R8, 0x00000000)
T0FC0 000:806.415 - 0.023ms returns 0x00
T0FC0 000:806.433 JLINK_WriteReg(R9, 0x200001B4)
T0FC0 000:806.449 - 0.023ms returns 0x00
T0FC0 000:806.466 JLINK_WriteReg(R10, 0x00000000)
T0FC0 000:806.481 - 0.023ms returns 0x00
T0FC0 000:806.498 JLINK_WriteReg(R11, 0x00000000)
T0FC0 000:806.514 - 0.024ms returns 0x00
T0FC0 000:806.532 JLINK_WriteReg(R12, 0x00000000)
T0FC0 000:806.548 - 0.023ms returns 0x00
T0FC0 000:806.565 JLINK_WriteReg(R13 (SP), 0x20001000)
T0FC0 000:806.582 - 0.024ms returns 0x00
T0FC0 000:806.598 JLINK_WriteReg(R14, 0x20000001)
T0FC0 000:806.614 - 0.023ms returns 0x00
T0FC0 000:806.631 JLINK_WriteReg(R15 (PC), 0x200000CC)
T0FC0 000:806.647 - 0.023ms returns 0x00
T0FC0 000:806.664 JLINK_WriteReg(XPSR, 0x01000000)
T0FC0 000:806.680 - 0.023ms returns 0x00
T0FC0 000:806.696 JLINK_WriteReg(MSP, 0x20001000)
T0FC0 000:806.712 - 0.023ms returns 0x00
T0FC0 000:806.729 JLINK_WriteReg(PSP, 0x20001000)
T0FC0 000:806.744 - 0.023ms returns 0x00
T0FC0 000:806.762 JLINK_WriteReg(CFBP, 0x00000000)
T0FC0 000:806.777 - 0.023ms returns 0x00
T0FC0 000:806.795   JLINK_SetBPEx(Addr = 0x20000000, Type = 0xFFFFFFF2)
T0FC0 000:806.819 - 0.031ms returns 0x00000005
T0FC0 000:806.836 JLINK_Go()
T0FC0 000:806.857    -- CPU_ReadMem(4 bytes @ 0xE0001000)
T0FC0 000:809.026 - 2.206ms
T0FC0 000:809.053 JLINK_IsHalted()
T0FC0 000:809.344 - 0.305ms returns FALSE
T0FC0 000:811.110 JLINK_IsHalted()
T0FC0 000:811.502 - 0.406ms returns FALSE
T0FC0 000:813.371 JLINK_IsHalted()
T0FC0 000:813.671 - 0.315ms returns FALSE
T0FC0 000:815.367 JLINK_IsHalted()
T0FC0 000:815.674 - 0.326ms returns FALSE
T0FC0 000:817.357 JLINK_IsHalted()
T0FC0 000:817.678 - 0.337ms returns FALSE
T0FC0 000:819.335 JLINK_IsHalted()
T0FC0 000:819.634 - 0.315ms returns FALSE
T0FC0 000:821.337 JLINK_IsHalted()
T0FC0 000:821.631 - 0.309ms returns FALSE
T0FC0 000:823.355 JLINK_IsHalted()
T0FC0 000:823.650 - 0.311ms returns FALSE
T0FC0 000:825.327 JLINK_IsHalted()
T0FC0 000:825.630 - 0.317ms returns FALSE
T0FC0 000:827.443 JLINK_IsHalted()
T0FC0 000:827.700 - 0.275ms returns FALSE
T0FC0 000:829.472 JLINK_IsHalted()
T0FC0 000:829.799 - 0.344ms returns FALSE
T0FC0 000:831.442 JLINK_IsHalted()
T0FC0 000:833.471    -- CPU_ReadMem(2 bytes @ 0x20000000)
T0FC0 000:833.802 - 2.376ms returns TRUE
T0FC0 000:833.831 JLINK_ReadReg(R15 (PC))
T0FC0 000:833.850 - 0.027ms returns 0x20000000
T0FC0 000:833.868 JLINK_ClrBPEx(BPHandle = 0x00000005)
T0FC0 000:833.884 - 0.023ms returns 0x00
T0FC0 000:833.901 JLINK_ReadReg(R0)
T0FC0 000:833.917 - 0.023ms returns 0x00000000
T0FC0 000:834.517 JLINK_WriteReg(R0, 0x08000800)
T0FC0 000:834.540 - 0.031ms returns 0x00
T0FC0 000:834.557 JLINK_WriteReg(R1, 0x00000400)
T0FC0 000:834.573 - 0.023ms returns 0x00
T0FC0 000:834.589 JLINK_WriteReg(R2, 0x000000FF)
T0FC0 000:834.605 - 0.022ms returns 0x00
T0FC0 000:834.621 JLINK_WriteReg(R3, 0x00000000)
T0FC0 000:834.637 - 0.022ms returns 0x00
T0FC0 000:834.653 JLINK_WriteReg(R4, 0x00000000)
T0FC0 000:834.668 - 0.022ms returns 0x00
T0FC0 000:834.685 JLINK_WriteReg(R5, 0x00000000)
T0FC0 000:834.700 - 0.022ms returns 0x00
T0FC0 000:834.716 JLINK_WriteReg(R6, 0x00000000)
T0FC0 000:834.731 - 0.022ms returns 0x00
T0FC0 000:834.748 JLINK_WriteReg(R7, 0x00000000)
T0FC0 000:834.763 - 0.022ms returns 0x00
T0FC0 000:834.780 JLINK_WriteReg(R8, 0x00000000)
T0FC0 000:834.795 - 0.022ms returns 0x00
T0FC0 000:834.811 JLINK_WriteReg(R9, 0x200001B4)
T0FC0 000:834.827 - 0.023ms returns 0x00
T0FC0 000:834.844 JLINK_WriteReg(R10, 0x00000000)
T0FC0 000:834.859 - 0.023ms returns 0x00
T0FC0 000:834.875 JLINK_WriteReg(R11, 0x00000000)
T0FC0 000:834.891 - 0.022ms returns 0x00
T0FC0 000:834.907 JLINK_WriteReg(R12, 0x00000000)
T0FC0 000:834.922 - 0.024ms returns 0x00
T0FC0 000:834.940 JLINK_WriteReg(R13 (SP), 0x20001000)
T0FC0 000:834.956 - 0.023ms returns 0x00
T0FC0 000:834.974 JLINK_WriteReg(R14, 0x20000001)
T0FC0 000:834.989 - 0.022ms returns 0x00
T0FC0 000:835.006 JLINK_WriteReg(R15 (PC), 0x2000012E)
T0FC0 000:835.022 - 0.023ms returns 0x00
T0FC0 000:835.038 JLINK_WriteReg(XPSR, 0x01000000)
T0FC0 000:835.054 - 0.023ms returns 0x00
T0FC0 000:835.070 JLINK_WriteReg(MSP, 0x20001000)
T0FC0 000:835.085 - 0.022ms returns 0x00
T0FC0 000:835.101 JLINK_WriteReg(PSP, 0x20001000)
T0FC0 000:835.117 - 0.022ms returns 0x00
T0FC0 000:835.133 JLINK_WriteReg(CFBP, 0x00000000)
T0FC0 000:835.148 - 0.022ms returns 0x00
T0FC0 000:835.168   JLINK_SetBPEx(Addr = 0x20000000, Type = 0xFFFFFFF2)
T0FC0 000:835.191 - 0.032ms returns 0x00000006
T0FC0 000:835.208 JLINK_Go()
T0FC0 000:835.230    -- CPU_ReadMem(4 bytes @ 0xE0001000)
T0FC0 000:837.415 - 2.227ms
T0FC0 000:837.451 JLINK_IsHalted()
T0FC0 000:839.463    -- CPU_ReadMem(2 bytes @ 0x20000000)
T0FC0 000:839.811 - 2.378ms returns TRUE
T0FC0 000:839.848 JLINK_ReadReg(R15 (PC))
T0FC0 000:839.869 - 0.028ms returns 0x20000000
T0FC0 000:839.888 JLINK_ClrBPEx(BPHandle = 0x00000006)
T0FC0 000:839.908 - 0.029ms returns 0x00
T0FC0 000:839.931 JLINK_ReadReg(R0)
T0FC0 000:839.949 - 0.025ms returns 0x00000001
T0FC0 000:840.050 JLINK_WriteReg(R0, 0x08000800)
T0FC0 000:840.083 - 0.044ms returns 0x00
T0FC0 000:840.106 JLINK_WriteReg(R1, 0x00000400)
T0FC0 000:840.125 - 0.027ms returns 0x00
T0FC0 000:840.143 JLINK_WriteReg(R2, 0x000000FF)
T0FC0 000:840.162 - 0.026ms returns 0x00
T0FC0 000:840.181 JLINK_WriteReg(R3, 0x00000000)
T0FC0 000:840.200 - 0.027ms returns 0x00
T0FC0 000:840.219 JLINK_WriteReg(R4, 0x00000000)
T0FC0 000:840.235 - 0.026ms returns 0x00
T0FC0 000:840.255 JLINK_WriteReg(R5, 0x00000000)
T0FC0 000:840.272 - 0.026ms returns 0x00
T0FC0 000:840.292 JLINK_WriteReg(R6, 0x00000000)
T0FC0 000:840.309 - 0.025ms returns 0x00
T0FC0 000:840.327 JLINK_WriteReg(R7, 0x00000000)
T0FC0 000:840.360 - 0.039ms returns 0x00
T0FC0 000:840.377 JLINK_WriteReg(R8, 0x00000000)
T0FC0 000:840.394 - 0.025ms returns 0x00
T0FC0 000:840.412 JLINK_WriteReg(R9, 0x200001B4)
T0FC0 000:840.428 - 0.025ms returns 0x00
T0FC0 000:840.447 JLINK_WriteReg(R10, 0x00000000)
T0FC0 000:840.463 - 0.025ms returns 0x00
T0FC0 000:840.482 JLINK_WriteReg(R11, 0x00000000)
T0FC0 000:840.498 - 0.025ms returns 0x00
T0FC0 000:840.517 JLINK_WriteReg(R12, 0x00000000)
T0FC0 000:840.535 - 0.027ms returns 0x00
T0FC0 000:840.554 JLINK_WriteReg(R13 (SP), 0x20001000)
T0FC0 000:840.573 - 0.030ms returns 0x00
T0FC0 000:840.595 JLINK_WriteReg(R14, 0x20000001)
T0FC0 000:840.611 - 0.023ms returns 0x00
T0FC0 000:840.627 JLINK_WriteReg(R15 (PC), 0x200000CC)
T0FC0 000:840.645 - 0.025ms returns 0x00
T0FC0 000:840.662 JLINK_WriteReg(XPSR, 0x01000000)
T0FC0 000:840.679 - 0.025ms returns 0x00
T0FC0 000:840.696 JLINK_WriteReg(MSP, 0x20001000)
T0FC0 000:840.711 - 0.023ms returns 0x00
T0FC0 000:840.729 JLINK_WriteReg(PSP, 0x20001000)
T0FC0 000:840.746 - 0.025ms returns 0x00
T0FC0 000:840.764 JLINK_WriteReg(CFBP, 0x00000000)
T0FC0 000:840.780 - 0.025ms returns 0x00
T0FC0 000:840.800   JLINK_SetBPEx(Addr = 0x20000000, Type = 0xFFFFFFF2)
T0FC0 000:840.825 - 0.035ms returns 0x00000007
T0FC0 000:840.844 JLINK_Go()
T0FC0 000:840.866    -- CPU_ReadMem(4 bytes @ 0xE0001000)
T0FC0 000:843.189 - 2.362ms
T0FC0 000:843.221 JLINK_IsHalted()
T0FC0 000:843.527 - 0.324ms returns FALSE
T0FC0 000:844.885 JLINK_IsHalted()
T0FC0 000:845.208 - 0.341ms returns FALSE
T0FC0 000:846.870 JLINK_IsHalted()
T0FC0 000:847.171 - 0.314ms returns FALSE
T0FC0 000:848.860 JLINK_IsHalted()
T0FC0 000:849.164 - 0.316ms returns FALSE
T0FC0 000:850.854 JLINK_IsHalted()
T0FC0 000:851.166 - 0.326ms returns FALSE
T0FC0 000:852.876 JLINK_IsHalted()
T0FC0 000:853.183 - 0.323ms returns FALSE
T0FC0 000:854.863 JLINK_IsHalted()
T0FC0 000:855.163 - 0.314ms returns FALSE
T0FC0 000:857.056 JLINK_IsHalted()
T0FC0 000:857.371 - 0.330ms returns FALSE
T0FC0 000:859.169 JLINK_IsHalted()
T0FC0 000:859.490 - 0.336ms returns FALSE
T0FC0 000:860.930 JLINK_IsHalted()
T0FC0 000:861.251 - 0.342ms returns FALSE
T0FC0 000:863.172 JLINK_IsHalted()
T0FC0 000:863.473 - 0.316ms returns FALSE
T0FC0 000:864.757 JLINK_IsHalted()
T0FC0 000:865.100 - 0.359ms returns FALSE
T0FC0 000:866.755 JLINK_IsHalted()
T0FC0 000:868.729    -- CPU_ReadMem(2 bytes @ 0x20000000)
T0FC0 000:869.105 - 2.366ms returns TRUE
T0FC0 000:869.135 JLINK_ReadReg(R15 (PC))
T0FC0 000:869.156 - 0.029ms returns 0x20000000
T0FC0 000:869.174 JLINK_ClrBPEx(BPHandle = 0x00000007)
T0FC0 000:869.193 - 0.026ms returns 0x00
T0FC0 000:869.211 JLINK_ReadReg(R0)
T0FC0 000:869.228 - 0.025ms returns 0x00000000
T0FC0 000:869.850 JLINK_WriteReg(R0, 0x08000C00)
T0FC0 000:869.875 - 0.033ms returns 0x00
T0FC0 000:869.893 JLINK_WriteReg(R1, 0x00000400)
T0FC0 000:869.910 - 0.025ms returns 0x00
T0FC0 000:869.928 JLINK_WriteReg(R2, 0x000000FF)
T0FC0 000:869.944 - 0.024ms returns 0x00
T0FC0 000:869.961 JLINK_WriteReg(R3, 0x00000000)
T0FC0 000:869.977 - 0.023ms returns 0x00
T0FC0 000:869.995 JLINK_WriteReg(R4, 0x00000000)
T0FC0 000:870.011 - 0.024ms returns 0x00
T0FC0 000:870.028 JLINK_WriteReg(R5, 0x00000000)
T0FC0 000:870.044 - 0.024ms returns 0x00
T0FC0 000:870.062 JLINK_WriteReg(R6, 0x00000000)
T0FC0 000:870.078 - 0.023ms returns 0x00
T0FC0 000:870.095 JLINK_WriteReg(R7, 0x00000000)
T0FC0 000:870.111 - 0.023ms returns 0x00
T0FC0 000:870.128 JLINK_WriteReg(R8, 0x00000000)
T0FC0 000:870.145 - 0.024ms returns 0x00
T0FC0 000:870.162 JLINK_WriteReg(R9, 0x200001B4)
T0FC0 000:870.177 - 0.024ms returns 0x00
T0FC0 000:870.195 JLINK_WriteReg(R10, 0x00000000)
T0FC0 000:870.211 - 0.024ms returns 0x00
T0FC0 000:870.229 JLINK_WriteReg(R11, 0x00000000)
T0FC0 000:870.245 - 0.023ms returns 0x00
T0FC0 000:870.262 JLINK_WriteReg(R12, 0x00000000)
T0FC0 000:870.279 - 0.024ms returns 0x00
T0FC0 000:870.296 JLINK_WriteReg(R13 (SP), 0x20001000)
T0FC0 000:870.313 - 0.025ms returns 0x00
T0FC0 000:870.331 JLINK_WriteReg(R14, 0x20000001)
T0FC0 000:870.347 - 0.024ms returns 0x00
T0FC0 000:870.365 JLINK_WriteReg(R15 (PC), 0x2000012E)
T0FC0 000:870.381 - 0.024ms returns 0x00
T0FC0 000:870.398 JLINK_WriteReg(XPSR, 0x01000000)
T0FC0 000:870.415 - 0.024ms returns 0x00
T0FC0 000:870.432 JLINK_WriteReg(MSP, 0x20001000)
T0FC0 000:870.449 - 0.024ms returns 0x00
T0FC0 000:870.466 JLINK_WriteReg(PSP, 0x20001000)
T0FC0 000:870.482 - 0.024ms returns 0x00
T0FC0 000:870.499 JLINK_WriteReg(CFBP, 0x00000000)
T0FC0 000:870.515 - 0.023ms returns 0x00
T0FC0 000:870.534   JLINK_SetBPEx(Addr = 0x20000000, Type = 0xFFFFFFF2)
T0FC0 000:870.620 - 0.095ms returns 0x00000008
T0FC0 000:870.639 JLINK_Go()
T0FC0 000:870.662    -- CPU_ReadMem(4 bytes @ 0xE0001000)
T0FC0 000:872.919 - 2.297ms
T0FC0 000:872.949 JLINK_IsHalted()
T0FC0 000:874.845    -- CPU_ReadMem(2 bytes @ 0x20000000)
T0FC0 000:875.227 - 2.293ms returns TRUE
T0FC0 000:875.257 JLINK_ReadReg(R15 (PC))
T0FC0 000:875.277 - 0.028ms returns 0x20000000
T0FC0 000:875.296 JLINK_ClrBPEx(BPHandle = 0x00000008)
T0FC0 000:875.315 - 0.026ms returns 0x00
T0FC0 000:875.333 JLINK_ReadReg(R0)
T0FC0 000:875.350 - 0.024ms returns 0x00000001
T0FC0 000:875.370 JLINK_WriteReg(R0, 0x08000C00)
T0FC0 000:875.387 - 0.025ms returns 0x00
T0FC0 000:875.405 JLINK_WriteReg(R1, 0x00000400)
T0FC0 000:875.436 - 0.038ms returns 0x00
T0FC0 000:875.453 JLINK_WriteReg(R2, 0x000000FF)
T0FC0 000:875.469 - 0.024ms returns 0x00
T0FC0 000:875.487 JLINK_WriteReg(R3, 0x00000000)
T0FC0 000:875.503 - 0.024ms returns 0x00
T0FC0 000:875.520 JLINK_WriteReg(R4, 0x00000000)
T0FC0 000:875.537 - 0.024ms returns 0x00
T0FC0 000:875.554 JLINK_WriteReg(R5, 0x00000000)
T0FC0 000:875.571 - 0.024ms returns 0x00
T0FC0 000:875.588 JLINK_WriteReg(R6, 0x00000000)
T0FC0 000:875.604 - 0.024ms returns 0x00
T0FC0 000:875.622 JLINK_WriteReg(R7, 0x00000000)
T0FC0 000:875.638 - 0.024ms returns 0x00
T0FC0 000:875.656 JLINK_WriteReg(R8, 0x00000000)
T0FC0 000:875.672 - 0.024ms returns 0x00
T0FC0 000:875.689 JLINK_WriteReg(R9, 0x200001B4)
T0FC0 000:875.706 - 0.024ms returns 0x00
T0FC0 000:875.723 JLINK_WriteReg(R10, 0x00000000)
T0FC0 000:875.739 - 0.024ms returns 0x00
T0FC0 000:875.757 JLINK_WriteReg(R11, 0x00000000)
T0FC0 000:875.773 - 0.023ms returns 0x00
T0FC0 000:875.790 JLINK_WriteReg(R12, 0x00000000)
T0FC0 000:875.807 - 0.024ms returns 0x00
T0FC0 000:875.824 JLINK_WriteReg(R13 (SP), 0x20001000)
T0FC0 000:875.841 - 0.024ms returns 0x00
T0FC0 000:875.859 JLINK_WriteReg(R14, 0x20000001)
T0FC0 000:875.875 - 0.024ms returns 0x00
T0FC0 000:875.892 JLINK_WriteReg(R15 (PC), 0x200000CC)
T0FC0 000:875.909 - 0.024ms returns 0x00
T0FC0 000:875.928 JLINK_WriteReg(XPSR, 0x01000000)
T0FC0 000:875.945 - 0.025ms returns 0x00
T0FC0 000:875.962 JLINK_WriteReg(MSP, 0x20001000)
T0FC0 000:875.979 - 0.024ms returns 0x00
T0FC0 000:875.996 JLINK_WriteReg(PSP, 0x20001000)
T0FC0 000:876.013 - 0.025ms returns 0x00
T0FC0 000:876.031 JLINK_WriteReg(CFBP, 0x00000000)
T0FC0 000:876.046 - 0.023ms returns 0x00
T0FC0 000:876.065   JLINK_SetBPEx(Addr = 0x20000000, Type = 0xFFFFFFF2)
T0FC0 000:876.089 - 0.032ms returns 0x00000009
T0FC0 000:876.107 JLINK_Go()
T0FC0 000:876.128    -- CPU_ReadMem(4 bytes @ 0xE0001000)
T0FC0 000:878.327 - 2.237ms
T0FC0 000:878.357 JLINK_IsHalted()
T0FC0 000:878.639 - 0.296ms returns FALSE
T0FC0 000:879.959 JLINK_IsHalted()
T0FC0 000:880.271 - 0.327ms returns FALSE
T0FC0 000:881.957 JLINK_IsHalted()
T0FC0 000:882.267 - 0.326ms returns FALSE
T0FC0 000:883.969 JLINK_IsHalted()
T0FC0 000:884.280 - 0.327ms returns FALSE
T0FC0 000:885.944 JLINK_IsHalted()
T0FC0 000:886.230 - 0.301ms returns FALSE
T0FC0 000:887.936 JLINK_IsHalted()
T0FC0 000:888.213 - 0.293ms returns FALSE
T0FC0 000:889.934 JLINK_IsHalted()
T0FC0 000:890.350 - 0.431ms returns FALSE
T0FC0 000:891.936 JLINK_IsHalted()
T0FC0 000:892.242 - 0.321ms returns FALSE
T0FC0 000:896.914 JLINK_IsHalted()
T0FC0 000:897.237 - 0.339ms returns FALSE
T0FC0 000:898.904 JLINK_IsHalted()
T0FC0 000:899.213 - 0.324ms returns FALSE
T0FC0 000:900.898 JLINK_IsHalted()
T0FC0 000:902.827    -- CPU_ReadMem(2 bytes @ 0x20000000)
T0FC0 000:903.150 - 2.268ms returns TRUE
T0FC0 000:903.179 JLINK_ReadReg(R15 (PC))
T0FC0 000:903.199 - 0.028ms returns 0x20000000
T0FC0 000:903.217 JLINK_ClrBPEx(BPHandle = 0x00000009)
T0FC0 000:903.234 - 0.025ms returns 0x00
T0FC0 000:903.252 JLINK_ReadReg(R0)
T0FC0 000:903.269 - 0.024ms returns 0x00000000
T0FC0 000:903.845 JLINK_WriteReg(R0, 0x08001000)
T0FC0 000:903.874 - 0.037ms returns 0x00
T0FC0 000:903.892 JLINK_WriteReg(R1, 0x00000400)
T0FC0 000:903.908 - 0.024ms returns 0x00
T0FC0 000:903.978 JLINK_WriteReg(R2, 0x000000FF)
T0FC0 000:903.999 - 0.029ms returns 0x00
T0FC0 000:904.017 JLINK_WriteReg(R3, 0x00000000)
T0FC0 000:904.033 - 0.023ms returns 0x00
T0FC0 000:904.050 JLINK_WriteReg(R4, 0x00000000)
T0FC0 000:904.066 - 0.023ms returns 0x00
T0FC0 000:904.083 JLINK_WriteReg(R5, 0x00000000)
T0FC0 000:904.100 - 0.024ms returns 0x00
T0FC0 000:904.117 JLINK_WriteReg(R6, 0x00000000)
T0FC0 000:904.133 - 0.023ms returns 0x00
T0FC0 000:904.150 JLINK_WriteReg(R7, 0x00000000)
T0FC0 000:904.166 - 0.024ms returns 0x00
T0FC0 000:904.183 JLINK_WriteReg(R8, 0x00000000)
T0FC0 000:904.200 - 0.024ms returns 0x00
T0FC0 000:904.218 JLINK_WriteReg(R9, 0x200001B4)
T0FC0 000:904.234 - 0.024ms returns 0x00
T0FC0 000:904.251 JLINK_WriteReg(R10, 0x00000000)
T0FC0 000:904.268 - 0.024ms returns 0x00
T0FC0 000:904.285 JLINK_WriteReg(R11, 0x00000000)
T0FC0 000:904.301 - 0.023ms returns 0x00
T0FC0 000:904.318 JLINK_WriteReg(R12, 0x00000000)
T0FC0 000:904.335 - 0.024ms returns 0x00
T0FC0 000:904.352 JLINK_WriteReg(R13 (SP), 0x20001000)
T0FC0 000:904.369 - 0.024ms returns 0x00
T0FC0 000:904.386 JLINK_WriteReg(R14, 0x20000001)
T0FC0 000:904.403 - 0.024ms returns 0x00
T0FC0 000:904.420 JLINK_WriteReg(R15 (PC), 0x2000012E)
T0FC0 000:904.436 - 0.025ms returns 0x00
T0FC0 000:904.454 JLINK_WriteReg(XPSR, 0x01000000)
T0FC0 000:904.471 - 0.024ms returns 0x00
T0FC0 000:904.488 JLINK_WriteReg(MSP, 0x20001000)
T0FC0 000:904.504 - 0.024ms returns 0x00
T0FC0 000:904.522 JLINK_WriteReg(PSP, 0x20001000)
T0FC0 000:904.538 - 0.024ms returns 0x00
T0FC0 000:904.555 JLINK_WriteReg(CFBP, 0x00000000)
T0FC0 000:904.573 - 0.026ms returns 0x00
T0FC0 000:904.592   JLINK_SetBPEx(Addr = 0x20000000, Type = 0xFFFFFFF2)
T0FC0 000:904.616 - 0.032ms returns 0x0000000A
T0FC0 000:904.634 JLINK_Go()
T0FC0 000:904.658    -- CPU_ReadMem(4 bytes @ 0xE0001000)
T0FC0 000:906.841 - 2.223ms
T0FC0 000:906.870 JLINK_IsHalted()
T0FC0 000:908.800    -- CPU_ReadMem(2 bytes @ 0x20000000)
T0FC0 000:909.127 - 2.272ms returns TRUE
T0FC0 000:909.155 JLINK_ReadReg(R15 (PC))
T0FC0 000:909.175 - 0.028ms returns 0x20000000
T0FC0 000:909.193 JLINK_ClrBPEx(BPHandle = 0x0000000A)
T0FC0 000:909.209 - 0.025ms returns 0x00
T0FC0 000:909.228 JLINK_ReadReg(R0)
T0FC0 000:909.244 - 0.024ms returns 0x00000001
T0FC0 000:909.264 JLINK_WriteReg(R0, 0x08001000)
T0FC0 000:909.281 - 0.025ms returns 0x00
T0FC0 000:909.299 JLINK_WriteReg(R1, 0x00000400)
T0FC0 000:909.315 - 0.024ms returns 0x00
T0FC0 000:909.332 JLINK_WriteReg(R2, 0x000000FF)
T0FC0 000:909.349 - 0.024ms returns 0x00
T0FC0 000:909.367 JLINK_WriteReg(R3, 0x00000000)
T0FC0 000:909.382 - 0.023ms returns 0x00
T0FC0 000:909.400 JLINK_WriteReg(R4, 0x00000000)
T0FC0 000:909.415 - 0.023ms returns 0x00
T0FC0 000:909.433 JLINK_WriteReg(R5, 0x00000000)
T0FC0 000:909.449 - 0.024ms returns 0x00
T0FC0 000:909.466 JLINK_WriteReg(R6, 0x00000000)
T0FC0 000:909.483 - 0.024ms returns 0x00
T0FC0 000:909.500 JLINK_WriteReg(R7, 0x00000000)
T0FC0 000:909.516 - 0.023ms returns 0x00
T0FC0 000:909.534 JLINK_WriteReg(R8, 0x00000000)
T0FC0 000:909.550 - 0.024ms returns 0x00
T0FC0 000:909.567 JLINK_WriteReg(R9, 0x200001B4)
T0FC0 000:909.584 - 0.024ms returns 0x00
T0FC0 000:909.601 JLINK_WriteReg(R10, 0x00000000)
T0FC0 000:909.618 - 0.024ms returns 0x00
T0FC0 000:909.635 JLINK_WriteReg(R11, 0x00000000)
T0FC0 000:909.651 - 0.024ms returns 0x00
T0FC0 000:909.669 JLINK_WriteReg(R12, 0x00000000)
T0FC0 000:909.685 - 0.024ms returns 0x00
T0FC0 000:909.702 JLINK_WriteReg(R13 (SP), 0x20001000)
T0FC0 000:909.719 - 0.024ms returns 0x00
T0FC0 000:909.736 JLINK_WriteReg(R14, 0x20000001)
T0FC0 000:909.753 - 0.024ms returns 0x00
T0FC0 000:909.770 JLINK_WriteReg(R15 (PC), 0x200000CC)
T0FC0 000:909.786 - 0.024ms returns 0x00
T0FC0 000:909.804 JLINK_WriteReg(XPSR, 0x01000000)
T0FC0 000:909.820 - 0.026ms returns 0x00
T0FC0 000:909.840 JLINK_WriteReg(MSP, 0x20001000)
T0FC0 000:909.856 - 0.025ms returns 0x00
T0FC0 000:909.874 JLINK_WriteReg(PSP, 0x20001000)
T0FC0 000:909.891 - 0.024ms returns 0x00
T0FC0 000:909.960 JLINK_WriteReg(CFBP, 0x00000000)
T0FC0 000:909.980 - 0.028ms returns 0x00
T0FC0 000:909.999   JLINK_SetBPEx(Addr = 0x20000000, Type = 0xFFFFFFF2)
T0FC0 000:910.028 - 0.038ms returns 0x0000000B
T0FC0 000:910.046 JLINK_Go()
T0FC0 000:910.068    -- CPU_ReadMem(4 bytes @ 0xE0001000)
T0FC0 000:912.203 - 2.172ms
T0FC0 000:912.232 JLINK_IsHalted()
T0FC0 000:912.558 - 0.341ms returns FALSE
T0FC0 000:913.892 JLINK_IsHalted()
T0FC0 000:914.161 - 0.283ms returns FALSE
T0FC0 000:915.853 JLINK_IsHalted()
T0FC0 000:916.138 - 0.297ms returns FALSE
T0FC0 000:917.877 JLINK_IsHalted()
T0FC0 000:918.144 - 0.279ms returns FALSE
T0FC0 000:919.857 JLINK_IsHalted()
T0FC0 000:920.111 - 0.267ms returns FALSE
T0FC0 000:921.847 JLINK_IsHalted()
T0FC0 000:922.092 - 0.258ms returns FALSE
T0FC0 000:923.822 JLINK_IsHalted()
T0FC0 000:924.089 - 0.280ms returns FALSE
T0FC0 000:925.860 JLINK_IsHalted()
T0FC0 000:926.126 - 0.279ms returns FALSE
T0FC0 000:927.826 JLINK_IsHalted()
T0FC0 000:928.188 - 0.372ms returns FALSE
T0FC0 000:929.811 JLINK_IsHalted()
T0FC0 000:930.096 - 0.295ms returns FALSE
T0FC0 000:931.792 JLINK_IsHalted()
T0FC0 000:932.100 - 0.321ms returns FALSE
T0FC0 000:933.790 JLINK_IsHalted()
T0FC0 000:934.082 - 0.302ms returns FALSE
T0FC0 000:935.787 JLINK_IsHalted()
T0FC0 000:937.714    -- CPU_ReadMem(2 bytes @ 0x20000000)
T0FC0 000:937.995 - 2.221ms returns TRUE
T0FC0 000:938.020 JLINK_ReadReg(R15 (PC))
T0FC0 000:938.039 - 0.026ms returns 0x20000000
T0FC0 000:938.055 JLINK_ClrBPEx(BPHandle = 0x0000000B)
T0FC0 000:938.071 - 0.022ms returns 0x00
T0FC0 000:938.087 JLINK_ReadReg(R0)
T0FC0 000:938.103 - 0.023ms returns 0x00000000
T0FC0 000:938.685 JLINK_WriteReg(R0, 0x08001400)
T0FC0 000:938.706 - 0.029ms returns 0x00
T0FC0 000:938.723 JLINK_WriteReg(R1, 0x00000400)
T0FC0 000:938.737 - 0.021ms returns 0x00
T0FC0 000:938.753 JLINK_WriteReg(R2, 0x000000FF)
T0FC0 000:938.767 - 0.023ms returns 0x00
T0FC0 000:938.785 JLINK_WriteReg(R3, 0x00000000)
T0FC0 000:938.800 - 0.022ms returns 0x00
T0FC0 000:938.816 JLINK_WriteReg(R4, 0x00000000)
T0FC0 000:938.831 - 0.021ms returns 0x00
T0FC0 000:938.846 JLINK_WriteReg(R5, 0x00000000)
T0FC0 000:938.861 - 0.021ms returns 0x00
T0FC0 000:938.876 JLINK_WriteReg(R6, 0x00000000)
T0FC0 000:938.891 - 0.022ms returns 0x00
T0FC0 000:938.907 JLINK_WriteReg(R7, 0x00000000)
T0FC0 000:938.922 - 0.021ms returns 0x00
T0FC0 000:938.937 JLINK_WriteReg(R8, 0x00000000)
T0FC0 000:938.952 - 0.021ms returns 0x00
T0FC0 000:938.967 JLINK_WriteReg(R9, 0x200001B4)
T0FC0 000:938.982 - 0.021ms returns 0x00
T0FC0 000:938.997 JLINK_WriteReg(R10, 0x00000000)
T0FC0 000:939.011 - 0.021ms returns 0x00
T0FC0 000:939.027 JLINK_WriteReg(R11, 0x00000000)
T0FC0 000:939.041 - 0.021ms returns 0x00
T0FC0 000:939.056 JLINK_WriteReg(R12, 0x00000000)
T0FC0 000:939.072 - 0.022ms returns 0x00
T0FC0 000:939.087 JLINK_WriteReg(R13 (SP), 0x20001000)
T0FC0 000:939.102 - 0.022ms returns 0x00
T0FC0 000:939.118 JLINK_WriteReg(R14, 0x20000001)
T0FC0 000:939.133 - 0.021ms returns 0x00
T0FC0 000:939.148 JLINK_WriteReg(R15 (PC), 0x2000012E)
T0FC0 000:939.163 - 0.021ms returns 0x00
T0FC0 000:939.178 JLINK_WriteReg(XPSR, 0x01000000)
T0FC0 000:939.193 - 0.022ms returns 0x00
T0FC0 000:939.208 JLINK_WriteReg(MSP, 0x20001000)
T0FC0 000:939.223 - 0.021ms returns 0x00
T0FC0 000:939.239 JLINK_WriteReg(PSP, 0x20001000)
T0FC0 000:939.253 - 0.021ms returns 0x00
T0FC0 000:939.269 JLINK_WriteReg(CFBP, 0x00000000)
T0FC0 000:939.284 - 0.022ms returns 0x00
T0FC0 000:939.300   JLINK_SetBPEx(Addr = 0x20000000, Type = 0xFFFFFFF2)
T0FC0 000:939.322 - 0.029ms returns 0x0000000C
T0FC0 000:939.337 JLINK_Go()
T0FC0 000:939.358    -- CPU_ReadMem(4 bytes @ 0xE0001000)
T0FC0 000:941.419 - 2.093ms
T0FC0 000:941.439 JLINK_IsHalted()
T0FC0 000:943.256    -- CPU_ReadMem(2 bytes @ 0x20000000)
T0FC0 000:943.512 - 2.083ms returns TRUE
T0FC0 000:943.537 JLINK_ReadReg(R15 (PC))
T0FC0 000:943.552 - 0.021ms returns 0x20000000
T0FC0 000:943.567 JLINK_ClrBPEx(BPHandle = 0x0000000C)
T0FC0 000:943.581 - 0.066ms returns 0x00
T0FC0 000:943.646 JLINK_ReadReg(R0)
T0FC0 000:943.661 - 0.022ms returns 0x00000001
T0FC0 000:943.678 JLINK_WriteReg(R0, 0x08001400)
T0FC0 000:943.692 - 0.021ms returns 0x00
T0FC0 000:943.707 JLINK_WriteReg(R1, 0x00000400)
T0FC0 000:943.721 - 0.020ms returns 0x00
T0FC0 000:943.736 JLINK_WriteReg(R2, 0x000000FF)
T0FC0 000:943.749 - 0.019ms returns 0x00
T0FC0 000:943.765 JLINK_WriteReg(R3, 0x00000000)
T0FC0 000:943.779 - 0.020ms returns 0x00
T0FC0 000:943.793 JLINK_WriteReg(R4, 0x00000000)
T0FC0 000:943.806 - 0.019ms returns 0x00
T0FC0 000:943.821 JLINK_WriteReg(R5, 0x00000000)
T0FC0 000:943.834 - 0.020ms returns 0x00
T0FC0 000:943.849 JLINK_WriteReg(R6, 0x00000000)
T0FC0 000:943.862 - 0.020ms returns 0x00
T0FC0 000:943.878 JLINK_WriteReg(R7, 0x00000000)
T0FC0 000:943.891 - 0.020ms returns 0x00
T0FC0 000:943.909 JLINK_WriteReg(R8, 0x00000000)
T0FC0 000:943.928 - 0.029ms returns 0x00
T0FC0 000:943.953 JLINK_WriteReg(R9, 0x200001B4)
T0FC0 000:943.974 - 0.030ms returns 0x00
T0FC0 000:943.996 JLINK_WriteReg(R10, 0x00000000)
T0FC0 000:944.017 - 0.032ms returns 0x00
T0FC0 000:944.040 JLINK_WriteReg(R11, 0x00000000)
T0FC0 000:944.061 - 0.030ms returns 0x00
T0FC0 000:944.082 JLINK_WriteReg(R12, 0x00000000)
T0FC0 000:944.105 - 0.032ms returns 0x00
T0FC0 000:944.127 JLINK_WriteReg(R13 (SP), 0x20001000)
T0FC0 000:944.148 - 0.031ms returns 0x00
T0FC0 000:944.184 JLINK_WriteReg(R14, 0x20000001)
T0FC0 000:944.204 - 0.030ms returns 0x00
T0FC0 000:944.296 JLINK_WriteReg(R15 (PC), 0x200000CC)
T0FC0 000:944.319 - 0.031ms returns 0x00
T0FC0 000:944.335 JLINK_WriteReg(XPSR, 0x01000000)
T0FC0 000:944.349 - 0.020ms returns 0x00
T0FC0 000:944.364 JLINK_WriteReg(MSP, 0x20001000)
T0FC0 000:944.377 - 0.020ms returns 0x00
T0FC0 000:944.391 JLINK_WriteReg(PSP, 0x20001000)
T0FC0 000:944.405 - 0.019ms returns 0x00
T0FC0 000:944.419 JLINK_WriteReg(CFBP, 0x00000000)
T0FC0 000:944.457 - 0.045ms returns 0x00
T0FC0 000:944.473   JLINK_SetBPEx(Addr = 0x20000000, Type = 0xFFFFFFF2)
T0FC0 000:944.494 - 0.028ms returns 0x0000000D
T0FC0 000:944.509 JLINK_Go()
T0FC0 000:944.530    -- CPU_ReadMem(4 bytes @ 0xE0001000)
T0FC0 000:946.582 - 2.084ms
T0FC0 000:946.604 JLINK_IsHalted()
T0FC0 000:946.941 - 0.349ms returns FALSE
T0FC0 000:948.795 JLINK_IsHalted()
T0FC0 000:949.079 - 0.297ms returns FALSE
T0FC0 000:950.777 JLINK_IsHalted()
T0FC0 000:951.053 - 0.289ms returns FALSE
T0FC0 000:952.773 JLINK_IsHalted()
T0FC0 000:953.052 - 0.292ms returns FALSE
T0FC0 000:956.799 JLINK_IsHalted()
T0FC0 000:957.084 - 0.299ms returns FALSE
T0FC0 000:959.041 JLINK_IsHalted()
T0FC0 000:959.309 - 0.282ms returns FALSE
T0FC0 000:960.543 JLINK_IsHalted()
T0FC0 000:960.810 - 0.281ms returns FALSE
T0FC0 000:962.040 JLINK_IsHalted()
T0FC0 000:962.268 - 0.242ms returns FALSE
T0FC0 000:963.995 JLINK_IsHalted()
T0FC0 000:964.271 - 0.291ms returns FALSE
T0FC0 000:965.996 JLINK_IsHalted()
T0FC0 000:966.273 - 0.291ms returns FALSE
T0FC0 000:967.981 JLINK_IsHalted()
T0FC0 000:968.253 - 0.288ms returns FALSE
T0FC0 000:970.012 JLINK_IsHalted()
T0FC0 000:971.842    -- CPU_ReadMem(2 bytes @ 0x20000000)
T0FC0 000:972.089 - 2.092ms returns TRUE
T0FC0 000:972.117 JLINK_ReadReg(R15 (PC))
T0FC0 000:972.139 - 0.030ms returns 0x20000000
T0FC0 000:972.157 JLINK_ClrBPEx(BPHandle = 0x0000000D)
T0FC0 000:972.174 - 0.024ms returns 0x00
T0FC0 000:972.192 JLINK_ReadReg(R0)
T0FC0 000:972.208 - 0.024ms returns 0x00000000
T0FC0 000:972.786 JLINK_WriteReg(R0, 0x08001800)
T0FC0 000:972.810 - 0.032ms returns 0x00
T0FC0 000:972.827 JLINK_WriteReg(R1, 0x00000400)
T0FC0 000:972.844 - 0.024ms returns 0x00
T0FC0 000:972.861 JLINK_WriteReg(R2, 0x000000FF)
T0FC0 000:972.878 - 0.025ms returns 0x00
T0FC0 000:972.895 JLINK_WriteReg(R3, 0x00000000)
T0FC0 000:972.912 - 0.024ms returns 0x00
T0FC0 000:972.929 JLINK_WriteReg(R4, 0x00000000)
T0FC0 000:972.946 - 0.024ms returns 0x00
T0FC0 000:972.966 JLINK_WriteReg(R5, 0x00000000)
T0FC0 000:972.982 - 0.024ms returns 0x00
T0FC0 000:973.000 JLINK_WriteReg(R6, 0x00000000)
T0FC0 000:973.026 - 0.040ms returns 0x00
T0FC0 000:973.049 JLINK_WriteReg(R7, 0x00000000)
T0FC0 000:973.066 - 0.024ms returns 0x00
T0FC0 000:973.083 JLINK_WriteReg(R8, 0x00000000)
T0FC0 000:973.100 - 0.024ms returns 0x00
T0FC0 000:973.117 JLINK_WriteReg(R9, 0x200001B4)
T0FC0 000:973.134 - 0.024ms returns 0x00
T0FC0 000:973.151 JLINK_WriteReg(R10, 0x00000000)
T0FC0 000:973.168 - 0.025ms returns 0x00
T0FC0 000:973.186 JLINK_WriteReg(R11, 0x00000000)
T0FC0 000:973.202 - 0.024ms returns 0x00
T0FC0 000:973.219 JLINK_WriteReg(R12, 0x00000000)
T0FC0 000:973.235 - 0.024ms returns 0x00
T0FC0 000:973.253 JLINK_WriteReg(R13 (SP), 0x20001000)
T0FC0 000:973.270 - 0.025ms returns 0x00
T0FC0 000:973.288 JLINK_WriteReg(R14, 0x20000001)
T0FC0 000:973.318 - 0.038ms returns 0x00
T0FC0 000:973.336 JLINK_WriteReg(R15 (PC), 0x2000012E)
T0FC0 000:973.354 - 0.025ms returns 0x00
T0FC0 000:973.372 JLINK_WriteReg(XPSR, 0x01000000)
T0FC0 000:973.388 - 0.024ms returns 0x00
T0FC0 000:973.406 JLINK_WriteReg(MSP, 0x20001000)
T0FC0 000:973.423 - 0.024ms returns 0x00
T0FC0 000:973.441 JLINK_WriteReg(PSP, 0x20001000)
T0FC0 000:973.458 - 0.024ms returns 0x00
T0FC0 000:973.475 JLINK_WriteReg(CFBP, 0x00000000)
T0FC0 000:973.492 - 0.025ms returns 0x00
T0FC0 000:973.511   JLINK_SetBPEx(Addr = 0x20000000, Type = 0xFFFFFFF2)
T0FC0 000:973.537 - 0.035ms returns 0x0000000E
T0FC0 000:973.557 JLINK_Go()
T0FC0 000:973.582    -- CPU_ReadMem(4 bytes @ 0xE0001000)
T0FC0 000:975.733 - 2.197ms
T0FC0 000:975.771 JLINK_IsHalted()
T0FC0 000:977.700    -- CPU_ReadMem(2 bytes @ 0x20000000)
T0FC0 000:977.973 - 2.221ms returns TRUE
T0FC0 000:978.009 JLINK_ReadReg(R15 (PC))
T0FC0 000:978.032 - 0.032ms returns 0x20000000
T0FC0 000:978.052 JLINK_ClrBPEx(BPHandle = 0x0000000E)
T0FC0 000:978.071 - 0.029ms returns 0x00
T0FC0 000:978.092 JLINK_ReadReg(R0)
T0FC0 000:978.110 - 0.026ms returns 0x00000001
